
T0D40 000:316 SEGGER J-Link V4.96d Log File (0001ms, 0277ms total)
T0D40 000:316 DLL Compiled: Jan 29 2015 11:45:37 (0001ms, 0277ms total)
T0D40 000:316 Logging started @ 2018-10-09 18:54 (0001ms, 0277ms total)
T0D40 000:317 JLINK_SetWarnOutHandler(...) (0000ms, 0277ms total)
T0D40 000:317 JLINK_OpenEx(...)
Firmware: J-Link ARM-OB STM32 compiled Aug 22 2012 19:52:04
Hardware: V7.00
S/N: 20090928
Feature(s): RDI,FlashDL,FlashBP,JFlash,GDBFull  returns O.K. (0272ms, 0549ms total)
T0D40 000:589 JLINK_SetErrorOutHandler(...) (0000ms, 0549ms total)
T0D40 000:589 JLINK_ExecCommand("ProjectFile = "E:\10-8x\USER\JLinkSettings.ini"", ...)  returns 0x00 (0000ms, 0549ms total)
T0D40 000:594 JLINK_ExecCommand("Device = STM32F103RC", ...)Device "STM32F103RC" selected.  returns 0x00 (0002ms, 0551ms total)
T0D40 000:596 JLINK_ExecCommand("DisableConnectionTimeout", ...)  returns 0x01 (0000ms, 0551ms total)
T0D40 000:596 JLINK_GetHardwareVersion()  returns 0x11170 (0000ms, 0551ms total)
T0D40 000:596 JLINK_GetDLLVersion()  returns 49604 (0000ms, 0551ms total)
T0D40 000:596 JLINK_GetFirmwareString(...) (0000ms, 0551ms total)
T0D40 000:639 JLINK_GetDLLVersion()  returns 49604 (0000ms, 0551ms total)
T0D40 000:639 JLINK_GetCompileDateTime() (0000ms, 0551ms total)
T0D40 000:644 JLINK_GetFirmwareString(...) (0000ms, 0551ms total)
T0D40 000:649 JLINK_GetHardwareVersion()  returns 0x11170 (0000ms, 0551ms total)
T0D40 000:683 JLINK_TIF_Select(JLINKARM_TIF_SWD)  returns 0x00 (0001ms, 0552ms total)
T0D40 000:684 JLINK_SetSpeed(20000) (0000ms, 0552ms total)
T0D40 000:684 JLINK_GetId() >0x108 TIF>Found SWD-DP with ID 0x1BA01477 >0x0D TIF> >0x28 TIF> >0x0D TIF> >0x28 TIF> >0x0D TIF> >0x21 TIF> >0x0D TIF> >0x28 TIF> >0x0D TIF> >0x28 TIF> >0x0D TIF> >0x28 TIF> >0x0D TIF> >0x21 TIF> >0x0D TIF> >0x21 TIF> >0x0D TIF> >0x28 TIF> >0x0D TIF> >0x21 TIF> >0x0D TIF> >0x21 TIF> >0x108 TIF>Found SWD-DP with ID 0x1BA01477 >0x0D TIF> >0x21 TIF> >0x0D TIF> >0x28 TIF> >0x0D TIF> >0x28 TIF> >0x0D TIF> >0x21 TIF> >0x0D TIF> >0x28 TIF> >0x0D TIF> >0x21 TIF> >0x0D TIF> >0x21 TIF>
 >0x0D TIF> >0x21 TIF> >0x0D TIF> >0x21 TIF> >0x0D TIF> >0x28 TIF> >0x0D TIF> >0x28 TIF> >0x0D TIF> >0x21 TIF> >0x0D TIF> >0x28 TIF> >0x0D TIF> >0x28 TIF> >0x0D TIF> >0x28 TIF> >0x0D TIF> >0x21 TIF> >0x0D TIF> >0x21 TIF> >0x0D TIF> >0x28 TIF> >0x0D TIF> >0x21 TIF> >0x0D TIF> >0x21 TIF>Found Cortex-M3 r1p1, Little endian. -- CPU_WriteMem(4 bytes @ 0xE0002000) -- CPU_ReadMem(4 bytes @ 0xE000EDF0) -- CPU_ReadMem(4 bytes @ 0xE0002000)FPUnit: 6 code (BP) slots and 2 literal slots
 -- CPU_ReadMem(4 bytes @ 0xE000EDFC) -- CPU_ReadMem(4 bytes @ 0xE0001000) -- CPU_WriteMem(4 bytes @ 0xE0001000) -- CPU_ReadMem(4 bytes @ 0xE000ED88) -- CPU_WriteMem(4 bytes @ 0xE000ED88) -- CPU_ReadMem(4 bytes @ 0xE000ED88) -- CPU_WriteMem(4 bytes @ 0xE000ED88) -- CPU_ReadMem(4 bytes @ 0xE00FF010)TPIU fitted. -- CPU_ReadMem(4 bytes @ 0xE00FF014)ETM fitted. -- CPU_ReadMem(4 bytes @ 0xE00FF018) >0x0D TIF> >0x21 TIF>  returns 0x1BA01477 (0062ms, 0614ms total)
T0D40 000:746 JLINK_GetDLLVersion()  returns 49604 (0000ms, 0614ms total)
T0D40 000:746 JLINK_CORE_GetFound()  returns 0x30000FF (0000ms, 0614ms total)
T0D40 000:746 JLINK_GetDebugInfo(0x100) -- Value=0xE00FF003  returns 0x00 (0000ms, 0614ms total)
T0D40 000:753 JLINK_ReadMem (0xE00FF000, 0x0020 Bytes, ...) -- CPU is running -- CPU_ReadMem(32 bytes @ 0xE00FF000) - Data: 03 F0 F0 FF 03 20 F0 FF 03 30 F0 FF 03 10 F0 FF ...  returns 0x00 (0001ms, 0615ms total)
T0D40 000:754 JLINK_ReadMem (0xE000EFF0, 0x0010 Bytes, ...) -- CPU is running -- CPU_ReadMem(16 bytes @ 0xE000EFF0) - Data: 0D 00 00 00 E0 00 00 00 05 00 00 00 B1 00 00 00  returns 0x00 (0001ms, 0616ms total)
T0D40 000:755 JLINK_ReadMem (0xE000EFD0, 0x0020 Bytes, ...) -- CPU is running -- CPU_ReadMem(32 bytes @ 0xE000EFD0) - Data: 04 00 00 00 00 00 00 00 00 00 00 00 00 00 00 00 ...  returns 0x00 (0000ms, 0616ms total)
T0D40 000:755 JLINK_ReadMem (0xE0001FF0, 0x0010 Bytes, ...) -- CPU is running -- CPU_ReadMem(16 bytes @ 0xE0001FF0) - Data: 0D 00 00 00 E0 00 00 00 05 00 00 00 B1 00 00 00  returns 0x00 (0001ms, 0617ms total)
T0D40 000:756 JLINK_ReadMem (0xE0001FD0, 0x0020 Bytes, ...) -- CPU is running -- CPU_ReadMem(32 bytes @ 0xE0001FD0) - Data: 04 00 00 00 00 00 00 00 00 00 00 00 00 00 00 00 ...  returns 0x00 (0001ms, 0618ms total)
T0D40 000:757 JLINK_ReadMem (0xE0002FF0, 0x0010 Bytes, ...) -- CPU is running -- CPU_ReadMem(16 bytes @ 0xE0002FF0) - Data: 0D 00 00 00 E0 00 00 00 05 00 00 00 B1 00 00 00  returns 0x00 (0000ms, 0618ms total)
T0D40 000:757 JLINK_ReadMem (0xE0002FD0, 0x0020 Bytes, ...) -- CPU is running -- CPU_ReadMem(32 bytes @ 0xE0002FD0) - Data: 04 00 00 00 00 00 00 00 00 00 00 00 00 00 00 00 ...  returns 0x00 (0001ms, 0619ms total)
T0D40 000:758 JLINK_ReadMem (0xE0000FF0, 0x0010 Bytes, ...) -- CPU is running -- CPU_ReadMem(16 bytes @ 0xE0000FF0) - Data: 0D 00 00 00 E0 00 00 00 05 00 00 00 B1 00 00 00  returns 0x00 (0001ms, 0620ms total)
T0D40 000:759 JLINK_ReadMem (0xE0000FD0, 0x0020 Bytes, ...) -- CPU is running -- CPU_ReadMem(32 bytes @ 0xE0000FD0) - Data: 04 00 00 00 00 00 00 00 00 00 00 00 00 00 00 00 ...  returns 0x00 (0000ms, 0620ms total)
T0D40 000:759 JLINK_ReadMem (0xE0040FF0, 0x0010 Bytes, ...) -- CPU is running -- CPU_ReadMem(16 bytes @ 0xE0040FF0) - Data: 0D 00 00 00 90 00 00 00 05 00 00 00 B1 00 00 00  returns 0x00 (0001ms, 0621ms total)
T0D40 000:760 JLINK_ReadMem (0xE0040FD0, 0x0020 Bytes, ...) -- CPU is running -- CPU_ReadMem(32 bytes @ 0xE0040FD0) - Data: 04 00 00 00 00 00 00 00 00 00 00 00 00 00 00 00 ...  returns 0x00 (0001ms, 0622ms total)
T0D40 000:761 JLINK_ReadMem (0xE0041FF0, 0x0010 Bytes, ...) -- CPU is running -- CPU_ReadMem(16 bytes @ 0xE0041FF0) - Data: 0D 00 00 00 90 00 00 00 05 00 00 00 B1 00 00 00  returns 0x00 (0000ms, 0622ms total)
T0D40 000:761 JLINK_ReadMem (0xE0041FD0, 0x0020 Bytes, ...) -- CPU is running -- CPU_ReadMem(32 bytes @ 0xE0041FD0) - Data: 04 00 00 00 00 00 00 00 00 00 00 00 00 00 00 00 ...  returns 0x00 (0001ms, 0623ms total)
T0D40 000:762 JLINK_ReadMemU32(0xE000ED00, 0x0001 Items, ...) -- CPU is running -- CPU_ReadMem(4 bytes @ 0xE000ED00) - Data: 31 C2 1F 41  returns 0x01 (0001ms, 0624ms total)
T0D40 000:763 JLINK_SetResetType(JLINKARM_RESET_TYPE_NORMAL)  returns JLINKARM_RESET_TYPE_NORMAL (0000ms, 0624ms total)
T0D40 000:763 JLINK_Reset() -- CPU is running -- CPU_WriteMem(4 bytes @ 0xE000EDF0) -- CPU is running -- CPU_WriteMem(4 bytes @ 0xE000EDFC) >0x35 TIF> -- CPU is running -- CPU_WriteMem(4 bytes @ 0xE000ED0C) -- CPU is running -- CPU_ReadMem(4 bytes @ 0xE000EDF0) -- CPU is running -- CPU_ReadMem(4 bytes @ 0xE000EDF0) -- CPU is running -- CPU_WriteMem(4 bytes @ 0xE000EDF0) -- CPU is running -- CPU_WriteMem(4 bytes @ 0xE000EDFC) -- CPU is running -- CPU_ReadMem(4 bytes @ 0xE000EDF0)
 -- CPU_WriteMem(4 bytes @ 0xE0002000) -- CPU_ReadMem(4 bytes @ 0xE000EDFC) -- CPU_ReadMem(4 bytes @ 0xE0001000) (0017ms, 0641ms total)
T0D40 000:780 JLINK_Halt()  returns 0x00 (0000ms, 0641ms total)
T0D40 000:780 JLINK_IsHalted()  returns TRUE (0000ms, 0641ms total)
T0D40 000:780 JLINK_ReadMemU32(0xE000EDF0, 0x0001 Items, ...) -- CPU_ReadMem(4 bytes @ 0xE000EDF0) - Data: 03 00 03 00  returns 0x01 (0001ms, 0642ms total)
T0D40 000:781 JLINK_WriteU32(0xE000EDF0, 0xA05F0003) -- CPU_WriteMem(4 bytes @ 0xE000EDF0)  returns 0x00 (0001ms, 0643ms total)
T0D40 000:782 JLINK_WriteU32(0xE000EDFC, 0x01000000) -- CPU_WriteMem(4 bytes @ 0xE000EDFC)  returns 0x00 (0000ms, 0643ms total)
T0D40 000:809 JLINK_GetHWStatus(...)  returns 0x00 (0000ms, 0643ms total)
T0D40 000:819 JLINK_GetNumBPUnits(Type = 0xFFFFFF00)  returns 0x06 (0000ms, 0643ms total)
T0D40 000:819 JLINK_GetNumBPUnits(Type = 0xF0)  returns 0x2000 (0000ms, 0643ms total)
T0D40 000:819 JLINK_GetNumWPUnits()  returns 0x04 (0000ms, 0643ms total)
T0D40 000:830 JLINK_GetSpeed()  returns 0xFA0 (0000ms, 0643ms total)
T0D40 000:849 JLINK_ReadMemU32(0xE000E004, 0x0001 Items, ...) -- CPU_ReadMem(4 bytes @ 0xE000E004) - Data: 01 00 00 00  returns 0x01 (0001ms, 0644ms total)
T0D40 000:850 JLINK_ReadMemU32(0xE000E004, 0x0001 Items, ...) -- CPU_ReadMem(4 bytes @ 0xE000E004) - Data: 01 00 00 00  returns 0x01 (0000ms, 0644ms total)
T0D40 000:850 JLINK_WriteMem(0xE0001000, 0x001C Bytes, ...) - Data: 01 00 00 00 00 00 00 00 00 00 00 00 00 00 00 00 ... -- CPU_WriteMem(28 bytes @ 0xE0001000)  returns 0x1C (0002ms, 0646ms total)
T0D40 000:852 JLINK_ReadMem (0xE0001000, 0x001C Bytes, ...) -- CPU_ReadMem(28 bytes @ 0xE0001000) - Data: 01 00 00 40 00 00 00 00 00 00 00 00 00 00 00 00 ...  returns 0x00 (0000ms, 0646ms total)
T0D40 000:852 JLINK_Halt()  returns 0x00 (0000ms, 0646ms total)
T0D40 000:852 JLINK_IsHalted()  returns TRUE (0000ms, 0646ms total)
T0D40 000:858 JLINK_WriteMem(0x20000000, 0x0164 Bytes, ...) - Data: 00 BE 0A E0 0D 78 2D 06 68 40 08 24 40 00 00 D3 ... -- CPU_WriteMem(356 bytes @ 0x20000000)  returns 0x164 (0006ms, 0652ms total)
T0D40 000:864 JLINK_WriteReg(R0, 0x08000000)  returns 0x00 (0000ms, 0652ms total)
T0D40 000:864 JLINK_WriteReg(R1, 0x00B71B00)  returns 0x00 (0000ms, 0652ms total)
T0D40 000:864 JLINK_WriteReg(R2, 0x00000001)  returns 0x00 (0000ms, 0652ms total)
T0D40 000:864 JLINK_WriteReg(R3, 0x00000000)  returns 0x00 (0000ms, 0652ms total)
T0D40 000:864 JLINK_WriteReg(R4, 0x00000000)  returns 0x00 (0000ms, 0652ms total)
T0D40 000:864 JLINK_WriteReg(R5, 0x00000000)  returns 0x00 (0000ms, 0652ms total)
T0D40 000:864 JLINK_WriteReg(R6, 0x00000000)  returns 0x00 (0000ms, 0652ms total)
T0D40 000:864 JLINK_WriteReg(R7, 0x00000000)  returns 0x00 (0000ms, 0652ms total)
T0D40 000:864 JLINK_WriteReg(R8, 0x00000000)  returns 0x00 (0000ms, 0652ms total)
T0D40 000:864 JLINK_WriteReg(R9, 0x20000160)  returns 0x00 (0000ms, 0652ms total)
T0D40 000:864 JLINK_WriteReg(R10, 0x00000000)  returns 0x00 (0000ms, 0652ms total)
T0D40 000:864 JLINK_WriteReg(R11, 0x00000000)  returns 0x00 (0000ms, 0652ms total)
T0D40 000:864 JLINK_WriteReg(R12, 0x00000000)  returns 0x00 (0000ms, 0652ms total)
T0D40 000:864 JLINK_WriteReg(R13 (SP), 0x20000800)  returns 0x00 (0000ms, 0652ms total)
T0D40 000:864 JLINK_WriteReg(R14, 0x20000001)  returns 0x00 (0000ms, 0652ms total)
T0D40 000:864 JLINK_WriteReg(R15 (PC), 0x20000038)  returns 0x00 (0000ms, 0652ms total)
T0D40 000:864 JLINK_WriteReg(XPSR, 0x01000000)  returns 0x00 (0000ms, 0652ms total)
T0D40 000:864 JLINK_WriteReg(MSP, 0x20000800)  returns 0x00 (0000ms, 0652ms total)
T0D40 000:864 JLINK_WriteReg(PSP, 0x20000800)  returns 0x00 (0000ms, 0652ms total)
T0D40 000:864 JLINK_WriteReg(CFBP, 0x00000000)  returns 0x00 (0000ms, 0652ms total)
T0D40 000:864 JLINK_SetBPEx(Addr = 0x20000000, Type = 0xFFFFFFF2) -- CPU_ReadMem(2 bytes @ 0x20000000)  returns 0x00000001 (0001ms, 0653ms total)
T0D40 000:865 JLINK_Go() -- CPU_WriteMem(2 bytes @ 0x20000000) -- CPU_WriteMem(4 bytes @ 0xE0002008) -- CPU_WriteMem(4 bytes @ 0xE000200C) -- CPU_WriteMem(4 bytes @ 0xE0002010) -- CPU_WriteMem(4 bytes @ 0xE0002014) -- CPU_WriteMem(4 bytes @ 0xE0002018) -- CPU_WriteMem(4 bytes @ 0xE000201C) -- CPU_WriteMem(4 bytes @ 0xE0001004) (0006ms, 0659ms total)
T0D40 000:871 JLINK_IsHalted() -- CPU_ReadMem(2 bytes @ 0x20000000)  returns TRUE (0003ms, 0662ms total)
T0D40 000:874 JLINK_ReadReg(R15 (PC))  returns 0x20000000 (0000ms, 0659ms total)
T0D40 000:874 JLINK_ClrBPEx(BPHandle = 0x00000001)  returns 0x00 (0000ms, 0659ms total)
T0D40 000:874 JLINK_ReadReg(R0)  returns 0x00000000 (0000ms, 0659ms total)
T0D40 000:875 JLINK_WriteReg(R0, 0x08000000)  returns 0x00 (0000ms, 0659ms total)
T0D40 000:875 JLINK_WriteReg(R1, 0x00B71B00)  returns 0x00 (0000ms, 0659ms total)
T0D40 000:875 JLINK_WriteReg(R2, 0x00000001)  returns 0x00 (0000ms, 0659ms total)
T0D40 000:875 JLINK_WriteReg(R3, 0x00000000)  returns 0x00 (0000ms, 0659ms total)
T0D40 000:875 JLINK_WriteReg(R4, 0x00000000)  returns 0x00 (0000ms, 0659ms total)
T0D40 000:875 JLINK_WriteReg(R5, 0x00000000)  returns 0x00 (0000ms, 0659ms total)
T0D40 000:875 JLINK_WriteReg(R6, 0x00000000)  returns 0x00 (0000ms, 0659ms total)
T0D40 000:875 JLINK_WriteReg(R7, 0x00000000)  returns 0x00 (0000ms, 0659ms total)
T0D40 000:875 JLINK_WriteReg(R8, 0x00000000)  returns 0x00 (0000ms, 0659ms total)
T0D40 000:875 JLINK_WriteReg(R9, 0x20000160)  returns 0x00 (0000ms, 0659ms total)
T0D40 000:875 JLINK_WriteReg(R10, 0x00000000)  returns 0x00 (0000ms, 0659ms total)
T0D40 000:875 JLINK_WriteReg(R11, 0x00000000)  returns 0x00 (0000ms, 0659ms total)
T0D40 000:875 JLINK_WriteReg(R12, 0x00000000)  returns 0x00 (0000ms, 0659ms total)
T0D40 000:875 JLINK_WriteReg(R13 (SP), 0x20000800)  returns 0x00 (0000ms, 0659ms total)
T0D40 000:875 JLINK_WriteReg(R14, 0x20000001)  returns 0x00 (0000ms, 0659ms total)
T0D40 000:875 JLINK_WriteReg(R15 (PC), 0x2000007C)  returns 0x00 (0000ms, 0659ms total)
T0D40 000:875 JLINK_WriteReg(XPSR, 0x01000000)  returns 0x00 (0000ms, 0659ms total)
T0D40 000:875 JLINK_WriteReg(MSP, 0x20000800)  returns 0x00 (0000ms, 0659ms total)
T0D40 000:875 JLINK_WriteReg(PSP, 0x20000800)  returns 0x00 (0000ms, 0659ms total)
T0D40 000:875 JLINK_WriteReg(CFBP, 0x00000000)  returns 0x00 (0000ms, 0659ms total)
T0D40 000:875 JLINK_SetBPEx(Addr = 0x20000000, Type = 0xFFFFFFF2)  returns 0x00000002 (0000ms, 0659ms total)
T0D40 000:875 JLINK_Go() (0002ms, 0661ms total)
T0D40 000:877 JLINK_IsHalted()  returns FALSE (0000ms, 0661ms total)
T0D40 000:960 JLINK_IsHalted() -- CPU_ReadMem(2 bytes @ 0x20000000)  returns TRUE (0003ms, 0664ms total)
T0D40 000:963 JLINK_ReadReg(R15 (PC))  returns 0x20000000 (0000ms, 0661ms total)
T0D40 000:963 JLINK_ClrBPEx(BPHandle = 0x00000002)  returns 0x00 (0000ms, 0661ms total)
T0D40 000:963 JLINK_ReadReg(R0)  returns 0x00000000 (0001ms, 0662ms total)
T0D40 001:018 JLINK_WriteReg(R0, 0x00000001)  returns 0x00 (0000ms, 0662ms total)
T0D40 001:018 JLINK_WriteReg(R1, 0x00B71B00)  returns 0x00 (0000ms, 0662ms total)
T0D40 001:018 JLINK_WriteReg(R2, 0x00000001)  returns 0x00 (0000ms, 0662ms total)
T0D40 001:018 JLINK_WriteReg(R3, 0x00000000)  returns 0x00 (0000ms, 0662ms total)
T0D40 001:018 JLINK_WriteReg(R4, 0x00000000)  returns 0x00 (0000ms, 0662ms total)
T0D40 001:018 JLINK_WriteReg(R5, 0x00000000)  returns 0x00 (0000ms, 0662ms total)
T0D40 001:018 JLINK_WriteReg(R6, 0x00000000)  returns 0x00 (0000ms, 0662ms total)
T0D40 001:018 JLINK_WriteReg(R7, 0x00000000)  returns 0x00 (0000ms, 0662ms total)
T0D40 001:018 JLINK_WriteReg(R8, 0x00000000)  returns 0x00 (0000ms, 0662ms total)
T0D40 001:018 JLINK_WriteReg(R9, 0x20000160)  returns 0x00 (0001ms, 0663ms total)
T0D40 001:019 JLINK_WriteReg(R10, 0x00000000)  returns 0x00 (0000ms, 0663ms total)
T0D40 001:019 JLINK_WriteReg(R11, 0x00000000)  returns 0x00 (0000ms, 0663ms total)
T0D40 001:019 JLINK_WriteReg(R12, 0x00000000)  returns 0x00 (0000ms, 0663ms total)
T0D40 001:019 JLINK_WriteReg(R13 (SP), 0x20000800)  returns 0x00 (0000ms, 0663ms total)
T0D40 001:019 JLINK_WriteReg(R14, 0x20000001)  returns 0x00 (0000ms, 0663ms total)
T0D40 001:019 JLINK_WriteReg(R15 (PC), 0x2000006A)  returns 0x00 (0000ms, 0663ms total)
T0D40 001:019 JLINK_WriteReg(XPSR, 0x01000000)  returns 0x00 (0000ms, 0663ms total)
T0D40 001:019 JLINK_WriteReg(MSP, 0x20000800)  returns 0x00 (0000ms, 0663ms total)
T0D40 001:019 JLINK_WriteReg(PSP, 0x20000800)  returns 0x00 (0000ms, 0663ms total)
T0D40 001:019 JLINK_WriteReg(CFBP, 0x00000000)  returns 0x00 (0000ms, 0663ms total)
T0D40 001:019 JLINK_SetBPEx(Addr = 0x20000000, Type = 0xFFFFFFF2)  returns 0x00000003 (0000ms, 0663ms total)
T0D40 001:019 JLINK_Go() (0002ms, 0665ms total)
T0D40 001:021 JLINK_IsHalted() -- CPU_ReadMem(2 bytes @ 0x20000000)  returns TRUE (0003ms, 0668ms total)
T0D40 001:024 JLINK_ReadReg(R15 (PC))  returns 0x20000000 (0000ms, 0665ms total)
T0D40 001:024 JLINK_ClrBPEx(BPHandle = 0x00000003)  returns 0x00 (0001ms, 0666ms total)
T0D40 001:025 JLINK_ReadReg(R0)  returns 0x00000000 (0000ms, 0666ms total)
T0D40 001:035 JLINK_WriteMem(0x20000000, 0x0164 Bytes, ...) - Data: 00 BE 0A E0 0D 78 2D 06 68 40 08 24 40 00 00 D3 ... -- CPU_WriteMem(356 bytes @ 0x20000000)  returns 0x164 (0005ms, 0671ms total)
T0D40 001:040 JLINK_WriteReg(R0, 0x08000000)  returns 0x00 (0000ms, 0671ms total)
T0D40 001:040 JLINK_WriteReg(R1, 0x00B71B00)  returns 0x00 (0000ms, 0671ms total)
T0D40 001:040 JLINK_WriteReg(R2, 0x00000002)  returns 0x00 (0001ms, 0672ms total)
T0D40 001:041 JLINK_WriteReg(R3, 0x00000000)  returns 0x00 (0000ms, 0672ms total)
T0D40 001:041 JLINK_WriteReg(R4, 0x00000000)  returns 0x00 (0000ms, 0672ms total)
T0D40 001:041 JLINK_WriteReg(R5, 0x00000000)  returns 0x00 (0000ms, 0672ms total)
T0D40 001:041 JLINK_WriteReg(R6, 0x00000000)  returns 0x00 (0000ms, 0672ms total)
T0D40 001:041 JLINK_WriteReg(R7, 0x00000000)  returns 0x00 (0000ms, 0672ms total)
T0D40 001:041 JLINK_WriteReg(R8, 0x00000000)  returns 0x00 (0000ms, 0672ms total)
T0D40 001:041 JLINK_WriteReg(R9, 0x20000160)  returns 0x00 (0000ms, 0672ms total)
T0D40 001:041 JLINK_WriteReg(R10, 0x00000000)  returns 0x00 (0000ms, 0672ms total)
T0D40 001:041 JLINK_WriteReg(R11, 0x00000000)  returns 0x00 (0000ms, 0672ms total)
T0D40 001:041 JLINK_WriteReg(R12, 0x00000000)  returns 0x00 (0000ms, 0672ms total)
T0D40 001:041 JLINK_WriteReg(R13 (SP), 0x20000800)  returns 0x00 (0000ms, 0672ms total)
T0D40 001:041 JLINK_WriteReg(R14, 0x20000001)  returns 0x00 (0000ms, 0672ms total)
T0D40 001:041 JLINK_WriteReg(R15 (PC), 0x20000038)  returns 0x00 (0000ms, 0672ms total)
T0D40 001:042 JLINK_WriteReg(XPSR, 0x01000000)  returns 0x00 (0000ms, 0673ms total)
T0D40 001:042 JLINK_WriteReg(MSP, 0x20000800)  returns 0x00 (0000ms, 0673ms total)
T0D40 001:042 JLINK_WriteReg(PSP, 0x20000800)  returns 0x00 (0000ms, 0673ms total)
T0D40 001:042 JLINK_WriteReg(CFBP, 0x00000000)  returns 0x00 (0000ms, 0673ms total)
T0D40 001:042 JLINK_SetBPEx(Addr = 0x20000000, Type = 0xFFFFFFF2) -- CPU_ReadMem(2 bytes @ 0x20000000)  returns 0x00000004 (0000ms, 0673ms total)
T0D40 001:042 JLINK_Go() -- CPU_WriteMem(2 bytes @ 0x20000000) (0003ms, 0676ms total)
T0D40 001:045 JLINK_IsHalted() -- CPU_ReadMem(2 bytes @ 0x20000000)  returns TRUE (0004ms, 0680ms total)
T0D40 001:049 JLINK_ReadReg(R15 (PC))  returns 0x20000000 (0000ms, 0676ms total)
T0D40 001:049 JLINK_ClrBPEx(BPHandle = 0x00000004)  returns 0x00 (0000ms, 0676ms total)
T0D40 001:049 JLINK_ReadReg(R0)  returns 0x00000000 (0001ms, 0677ms total)
T0D40 001:050 JLINK_WriteMem(0x20000164, 0x0400 Bytes, ...) - Data: D8 0B 00 20 45 01 00 08 75 01 00 08 77 01 00 08 ... -- CPU_WriteMem(1024 bytes @ 0x20000164)  returns 0x400 (0013ms, 0690ms total)
T0D40 001:063 JLINK_WriteReg(R0, 0x08000000)  returns 0x00 (0000ms, 0690ms total)
T0D40 001:063 JLINK_WriteReg(R1, 0x00000400)  returns 0x00 (0000ms, 0690ms total)
T0D40 001:063 JLINK_WriteReg(R2, 0x20000164)  returns 0x00 (0000ms, 0690ms total)
T0D40 001:063 JLINK_WriteReg(R3, 0x00000000)  returns 0x00 (0000ms, 0690ms total)
T0D40 001:063 JLINK_WriteReg(R4, 0x00000000)  returns 0x00 (0000ms, 0690ms total)
T0D40 001:063 JLINK_WriteReg(R5, 0x00000000)  returns 0x00 (0000ms, 0690ms total)
T0D40 001:063 JLINK_WriteReg(R6, 0x00000000)  returns 0x00 (0000ms, 0690ms total)
T0D40 001:063 JLINK_WriteReg(R7, 0x00000000)  returns 0x00 (0000ms, 0690ms total)
T0D40 001:063 JLINK_WriteReg(R8, 0x00000000)  returns 0x00 (0000ms, 0690ms total)
T0D40 001:063 JLINK_WriteReg(R9, 0x20000160)  returns 0x00 (0000ms, 0690ms total)
T0D40 001:063 JLINK_WriteReg(R10, 0x00000000)  returns 0x00 (0000ms, 0690ms total)
T0D40 001:063 JLINK_WriteReg(R11, 0x00000000)  returns 0x00 (0000ms, 0690ms total)
T0D40 001:063 JLINK_WriteReg(R12, 0x00000000)  returns 0x00 (0000ms, 0690ms total)
T0D40 001:063 JLINK_WriteReg(R13 (SP), 0x20000800)  returns 0x00 (0000ms, 0690ms total)
T0D40 001:063 JLINK_WriteReg(R14, 0x20000001)  returns 0x00 (0000ms, 0690ms total)
T0D40 001:063 JLINK_WriteReg(R15 (PC), 0x200000F4)  returns 0x00 (0000ms, 0690ms total)
T0D40 001:063 JLINK_WriteReg(XPSR, 0x01000000)  returns 0x00 (0000ms, 0690ms total)
T0D40 001:063 JLINK_WriteReg(MSP, 0x20000800)  returns 0x00 (0000ms, 0690ms total)
T0D40 001:063 JLINK_WriteReg(PSP, 0x20000800)  returns 0x00 (0000ms, 0690ms total)
T0D40 001:063 JLINK_WriteReg(CFBP, 0x00000000)  returns 0x00 (0000ms, 0690ms total)
T0D40 001:063 JLINK_SetBPEx(Addr = 0x20000000, Type = 0xFFFFFFF2)  returns 0x00000005 (0000ms, 0690ms total)
T0D40 001:063 JLINK_Go() (0003ms, 0693ms total)
T0D40 001:066 JLINK_IsHalted()  returns FALSE (0000ms, 0693ms total)
T0D40 001:137 JLINK_IsHalted() -- CPU_ReadMem(2 bytes @ 0x20000000)  returns TRUE (0004ms, 0697ms total)
T0D40 001:141 JLINK_ReadReg(R15 (PC))  returns 0x20000000 (0000ms, 0693ms total)
T0D40 001:141 JLINK_ClrBPEx(BPHandle = 0x00000005)  returns 0x00 (0000ms, 0693ms total)
T0D40 001:141 JLINK_ReadReg(R0)  returns 0x00000000 (0000ms, 0693ms total)
T0D40 001:142 JLINK_WriteMem(0x20000164, 0x0400 Bytes, ...) - Data: 21 43 09 01 25 4C 06 78 A1 55 04 78 04 F0 1F 05 ... -- CPU_WriteMem(1024 bytes @ 0x20000164)  returns 0x400 (0013ms, 0706ms total)
T0D40 001:155 JLINK_WriteReg(R0, 0x08000400)  returns 0x00 (0000ms, 0706ms total)
T0D40 001:155 JLINK_WriteReg(R1, 0x00000400)  returns 0x00 (0000ms, 0706ms total)
T0D40 001:155 JLINK_WriteReg(R2, 0x20000164)  returns 0x00 (0000ms, 0706ms total)
T0D40 001:155 JLINK_WriteReg(R3, 0x00000000)  returns 0x00 (0000ms, 0706ms total)
T0D40 001:155 JLINK_WriteReg(R4, 0x00000000)  returns 0x00 (0000ms, 0706ms total)
T0D40 001:155 JLINK_WriteReg(R5, 0x00000000)  returns 0x00 (0000ms, 0706ms total)
T0D40 001:155 JLINK_WriteReg(R6, 0x00000000)  returns 0x00 (0000ms, 0706ms total)
T0D40 001:155 JLINK_WriteReg(R7, 0x00000000)  returns 0x00 (0000ms, 0706ms total)
T0D40 001:155 JLINK_WriteReg(R8, 0x00000000)  returns 0x00 (0000ms, 0706ms total)
T0D40 001:155 JLINK_WriteReg(R9, 0x20000160)  returns 0x00 (0000ms, 0706ms total)
T0D40 001:155 JLINK_WriteReg(R10, 0x00000000)  returns 0x00 (0000ms, 0706ms total)
T0D40 001:155 JLINK_WriteReg(R11, 0x00000000)  returns 0x00 (0000ms, 0706ms total)
T0D40 001:155 JLINK_WriteReg(R12, 0x00000000)  returns 0x00 (0000ms, 0706ms total)
T0D40 001:155 JLINK_WriteReg(R13 (SP), 0x20000800)  returns 0x00 (0000ms, 0706ms total)
T0D40 001:155 JLINK_WriteReg(R14, 0x20000001)  returns 0x00 (0000ms, 0706ms total)
T0D40 001:155 JLINK_WriteReg(R15 (PC), 0x200000F4)  returns 0x00 (0000ms, 0706ms total)
T0D40 001:155 JLINK_WriteReg(XPSR, 0x01000000)  returns 0x00 (0000ms, 0706ms total)
T0D40 001:155 JLINK_WriteReg(MSP, 0x20000800)  returns 0x00 (0000ms, 0706ms total)
T0D40 001:155 JLINK_WriteReg(PSP, 0x20000800)  returns 0x00 (0000ms, 0706ms total)
T0D40 001:155 JLINK_WriteReg(CFBP, 0x00000000)  returns 0x00 (0000ms, 0706ms total)
T0D40 001:155 JLINK_SetBPEx(Addr = 0x20000000, Type = 0xFFFFFFF2)  returns 0x00000006 (0000ms, 0706ms total)
T0D40 001:155 JLINK_Go() (0002ms, 0708ms total)
T0D40 001:157 JLINK_IsHalted()  returns FALSE (0000ms, 0708ms total)
T0D40 001:163 JLINK_IsHalted()  returns FALSE (0000ms, 0708ms total)
T0D40 001:165 JLINK_IsHalted()  returns FALSE (0000ms, 0708ms total)
T0D40 001:167 JLINK_IsHalted()  returns FALSE (0000ms, 0708ms total)
T0D40 001:169 JLINK_IsHalted()  returns FALSE (0000ms, 0708ms total)
T0D40 001:171 JLINK_IsHalted()  returns FALSE (0000ms, 0708ms total)
T0D40 001:173 JLINK_IsHalted()  returns FALSE (0000ms, 0708ms total)
T0D40 001:175 JLINK_IsHalted()  returns FALSE (0000ms, 0708ms total)
T0D40 001:177 JLINK_IsHalted()  returns FALSE (0000ms, 0708ms total)
T0D40 001:179 JLINK_IsHalted()  returns FALSE (0000ms, 0708ms total)
T0D40 001:181 JLINK_IsHalted()  returns FALSE (0000ms, 0708ms total)
T0D40 001:183 JLINK_IsHalted()  returns FALSE (0000ms, 0708ms total)
T0D40 001:185 JLINK_IsHalted()  returns FALSE (0000ms, 0708ms total)
T0D40 001:187 JLINK_IsHalted()  returns FALSE (0000ms, 0708ms total)
T0D40 001:195 JLINK_IsHalted() -- CPU_ReadMem(2 bytes @ 0x20000000)  returns TRUE (0003ms, 0711ms total)
T0D40 001:198 JLINK_ReadReg(R15 (PC))  returns 0x20000000 (0000ms, 0708ms total)
T0D40 001:198 JLINK_ClrBPEx(BPHandle = 0x00000006)  returns 0x00 (0000ms, 0708ms total)
T0D40 001:198 JLINK_ReadReg(R0)  returns 0x00000000 (0000ms, 0708ms total)
T0D40 001:199 JLINK_WriteMem(0x20000164, 0x0400 Bytes, ...) - Data: F0 BD 10 B5 0A 46 00 21 00 23 81 6B 21 F4 40 11 ... -- CPU_WriteMem(1024 bytes @ 0x20000164)  returns 0x400 (0012ms, 0720ms total)
T0D40 001:211 JLINK_WriteReg(R0, 0x08000800)  returns 0x00 (0000ms, 0720ms total)
T0D40 001:211 JLINK_WriteReg(R1, 0x00000400)  returns 0x00 (0000ms, 0720ms total)
T0D40 001:211 JLINK_WriteReg(R2, 0x20000164)  returns 0x00 (0000ms, 0720ms total)
T0D40 001:211 JLINK_WriteReg(R3, 0x00000000)  returns 0x00 (0000ms, 0720ms total)
T0D40 001:211 JLINK_WriteReg(R4, 0x00000000)  returns 0x00 (0000ms, 0720ms total)
T0D40 001:211 JLINK_WriteReg(R5, 0x00000000)  returns 0x00 (0000ms, 0720ms total)
T0D40 001:211 JLINK_WriteReg(R6, 0x00000000)  returns 0x00 (0000ms, 0720ms total)
T0D40 001:211 JLINK_WriteReg(R7, 0x00000000)  returns 0x00 (0000ms, 0720ms total)
T0D40 001:211 JLINK_WriteReg(R8, 0x00000000)  returns 0x00 (0000ms, 0720ms total)
T0D40 001:211 JLINK_WriteReg(R9, 0x20000160)  returns 0x00 (0000ms, 0720ms total)
T0D40 001:211 JLINK_WriteReg(R10, 0x00000000)  returns 0x00 (0000ms, 0720ms total)
T0D40 001:211 JLINK_WriteReg(R11, 0x00000000)  returns 0x00 (0000ms, 0720ms total)
T0D40 001:211 JLINK_WriteReg(R12, 0x00000000)  returns 0x00 (0000ms, 0720ms total)
T0D40 001:211 JLINK_WriteReg(R13 (SP), 0x20000800)  returns 0x00 (0000ms, 0720ms total)
T0D40 001:211 JLINK_WriteReg(R14, 0x20000001)  returns 0x00 (0000ms, 0720ms total)
T0D40 001:211 JLINK_WriteReg(R15 (PC), 0x200000F4)  returns 0x00 (0000ms, 0720ms total)
T0D40 001:211 JLINK_WriteReg(XPSR, 0x01000000)  returns 0x00 (0000ms, 0720ms total)
T0D40 001:211 JLINK_WriteReg(MSP, 0x20000800)  returns 0x00 (0000ms, 0720ms total)
T0D40 001:212 JLINK_WriteReg(PSP, 0x20000800)  returns 0x00 (0000ms, 0721ms total)
T0D40 001:212 JLINK_WriteReg(CFBP, 0x00000000)  returns 0x00 (0000ms, 0721ms total)
T0D40 001:212 JLINK_SetBPEx(Addr = 0x20000000, Type = 0xFFFFFFF2)  returns 0x00000007 (0000ms, 0721ms total)
T0D40 001:212 JLINK_Go() (0001ms, 0722ms total)
T0D40 001:213 JLINK_IsHalted()  returns FALSE (0001ms, 0723ms total)
T0D40 001:216 JLINK_IsHalted()  returns FALSE (0000ms, 0722ms total)
T0D40 001:218 JLINK_IsHalted()  returns FALSE (0000ms, 0722ms total)
T0D40 001:220 JLINK_IsHalted()  returns FALSE (0000ms, 0722ms total)
T0D40 001:224 JLINK_IsHalted()  returns FALSE (0000ms, 0722ms total)
T0D40 001:226 JLINK_IsHalted()  returns FALSE (0000ms, 0722ms total)
T0D40 001:228 JLINK_IsHalted()  returns FALSE (0001ms, 0723ms total)
T0D40 001:230 JLINK_IsHalted()  returns FALSE (0000ms, 0722ms total)
T0D40 001:232 JLINK_IsHalted()  returns FALSE (0000ms, 0722ms total)
T0D40 001:234 JLINK_IsHalted()  returns FALSE (0000ms, 0722ms total)
T0D40 001:236 JLINK_IsHalted()  returns FALSE (0000ms, 0722ms total)
T0D40 001:243 JLINK_IsHalted()  returns FALSE (0000ms, 0722ms total)
T0D40 001:245 JLINK_IsHalted() -- CPU_ReadMem(2 bytes @ 0x20000000)  returns TRUE (0003ms, 0725ms total)
T0D40 001:248 JLINK_ReadReg(R15 (PC))  returns 0x20000000 (0000ms, 0722ms total)
T0D40 001:248 JLINK_ClrBPEx(BPHandle = 0x00000007)  returns 0x00 (0000ms, 0722ms total)
T0D40 001:248 JLINK_ReadReg(R0)  returns 0x00000000 (0000ms, 0722ms total)
T0D40 001:249 JLINK_WriteMem(0x20000164, 0x0400 Bytes, ...) - Data: 08 39 49 68 41 F0 70 61 62 4A 08 3A 51 60 3C E0 ... -- CPU_WriteMem(1024 bytes @ 0x20000164)  returns 0x400 (0012ms, 0734ms total)
T0D40 001:261 JLINK_WriteReg(R0, 0x08000C00)  returns 0x00 (0001ms, 0735ms total)
T0D40 001:262 JLINK_WriteReg(R1, 0x00000400)  returns 0x00 (0000ms, 0735ms total)
T0D40 001:262 JLINK_WriteReg(R2, 0x20000164)  returns 0x00 (0000ms, 0735ms total)
T0D40 001:262 JLINK_WriteReg(R3, 0x00000000)  returns 0x00 (0000ms, 0735ms total)
T0D40 001:262 JLINK_WriteReg(R4, 0x00000000)  returns 0x00 (0000ms, 0735ms total)
T0D40 001:262 JLINK_WriteReg(R5, 0x00000000)  returns 0x00 (0000ms, 0735ms total)
T0D40 001:262 JLINK_WriteReg(R6, 0x00000000)  returns 0x00 (0000ms, 0735ms total)
T0D40 001:262 JLINK_WriteReg(R7, 0x00000000)  returns 0x00 (0000ms, 0735ms total)
T0D40 001:262 JLINK_WriteReg(R8, 0x00000000)  returns 0x00 (0000ms, 0735ms total)
T0D40 001:262 JLINK_WriteReg(R9, 0x20000160)  returns 0x00 (0000ms, 0735ms total)
T0D40 001:262 JLINK_WriteReg(R10, 0x00000000)  returns 0x00 (0000ms, 0735ms total)
T0D40 001:262 JLINK_WriteReg(R11, 0x00000000)  returns 0x00 (0000ms, 0735ms total)
T0D40 001:262 JLINK_WriteReg(R12, 0x00000000)  returns 0x00 (0000ms, 0735ms total)
T0D40 001:262 JLINK_WriteReg(R13 (SP), 0x20000800)  returns 0x00 (0000ms, 0735ms total)
T0D40 001:262 JLINK_WriteReg(R14, 0x20000001)  returns 0x00 (0000ms, 0735ms total)
T0D40 001:262 JLINK_WriteReg(R15 (PC), 0x200000F4)  returns 0x00 (0000ms, 0735ms total)
T0D40 001:262 JLINK_WriteReg(XPSR, 0x01000000)  returns 0x00 (0000ms, 0735ms total)
T0D40 001:262 JLINK_WriteReg(MSP, 0x20000800)  returns 0x00 (0000ms, 0735ms total)
T0D40 001:262 JLINK_WriteReg(PSP, 0x20000800)  returns 0x00 (0000ms, 0735ms total)
T0D40 001:262 JLINK_WriteReg(CFBP, 0x00000000)  returns 0x00 (0000ms, 0735ms total)
T0D40 001:262 JLINK_SetBPEx(Addr = 0x20000000, Type = 0xFFFFFFF2)  returns 0x00000008 (0000ms, 0735ms total)
T0D40 001:262 JLINK_Go() (0002ms, 0737ms total)
T0D40 001:264 JLINK_IsHalted()  returns FALSE (0000ms, 0737ms total)
T0D40 001:267 JLINK_IsHalted()  returns FALSE (0000ms, 0737ms total)
T0D40 001:271 JLINK_IsHalted()  returns FALSE (0001ms, 0738ms total)
T0D40 001:274 JLINK_IsHalted()  returns FALSE (0001ms, 0738ms total)
T0D40 001:277 JLINK_IsHalted()  returns FALSE (0000ms, 0737ms total)
T0D40 001:280 JLINK_IsHalted()  returns FALSE (0000ms, 0737ms total)
T0D40 001:282 JLINK_IsHalted()  returns FALSE (0000ms, 0737ms total)
T0D40 001:284 JLINK_IsHalted()  returns FALSE (0000ms, 0737ms total)
T0D40 001:286 JLINK_IsHalted()  returns FALSE (0000ms, 0737ms total)
T0D40 001:288 JLINK_IsHalted()  returns FALSE (0000ms, 0737ms total)
T0D40 001:290 JLINK_IsHalted()  returns FALSE (0000ms, 0737ms total)
T0D40 001:292 JLINK_IsHalted()  returns FALSE (0000ms, 0737ms total)
T0D40 001:294 JLINK_IsHalted()  returns FALSE (0000ms, 0737ms total)
T0D40 001:296 JLINK_IsHalted() -- CPU_ReadMem(2 bytes @ 0x20000000)  returns TRUE (0003ms, 0740ms total)
T0D40 001:299 JLINK_ReadReg(R15 (PC))  returns 0x20000000 (0000ms, 0737ms total)
T0D40 001:299 JLINK_ClrBPEx(BPHandle = 0x00000008)  returns 0x00 (0000ms, 0737ms total)
T0D40 001:299 JLINK_ReadReg(R0)  returns 0x00000000 (0000ms, 0737ms total)
T0D40 001:300 JLINK_WriteMem(0x20000164, 0x0400 Bytes, ...) - Data: 0A 46 00 23 00 24 00 21 00 25 00 F0 00 46 B6 F1 ... -- CPU_WriteMem(1024 bytes @ 0x20000164)  returns 0x400 (0012ms, 0749ms total)
T0D40 001:313 JLINK_WriteReg(R0, 0x08001000)  returns 0x00 (0000ms, 0750ms total)
T0D40 001:313 JLINK_WriteReg(R1, 0x00000400)  returns 0x00 (0000ms, 0750ms total)
T0D40 001:313 JLINK_WriteReg(R2, 0x20000164)  returns 0x00 (0000ms, 0750ms total)
T0D40 001:313 JLINK_WriteReg(R3, 0x00000000)  returns 0x00 (0000ms, 0750ms total)
T0D40 001:313 JLINK_WriteReg(R4, 0x00000000)  returns 0x00 (0000ms, 0750ms total)
T0D40 001:313 JLINK_WriteReg(R5, 0x00000000)  returns 0x00 (0001ms, 0751ms total)
T0D40 001:314 JLINK_WriteReg(R6, 0x00000000)  returns 0x00 (0000ms, 0751ms total)
T0D40 001:314 JLINK_WriteReg(R7, 0x00000000)  returns 0x00 (0000ms, 0751ms total)
T0D40 001:314 JLINK_WriteReg(R8, 0x00000000)  returns 0x00 (0000ms, 0751ms total)
T0D40 001:314 JLINK_WriteReg(R9, 0x20000160)  returns 0x00 (0000ms, 0751ms total)
T0D40 001:314 JLINK_WriteReg(R10, 0x00000000)  returns 0x00 (0000ms, 0751ms total)
T0D40 001:314 JLINK_WriteReg(R11, 0x00000000)  returns 0x00 (0000ms, 0751ms total)
T0D40 001:314 JLINK_WriteReg(R12, 0x00000000)  returns 0x00 (0000ms, 0751ms total)
T0D40 001:314 JLINK_WriteReg(R13 (SP), 0x20000800)  returns 0x00 (0000ms, 0751ms total)
T0D40 001:314 JLINK_WriteReg(R14, 0x20000001)  returns 0x00 (0000ms, 0751ms total)
T0D40 001:314 JLINK_WriteReg(R15 (PC), 0x200000F4)  returns 0x00 (0000ms, 0751ms total)
T0D40 001:314 JLINK_WriteReg(XPSR, 0x01000000)  returns 0x00 (0000ms, 0751ms total)
T0D40 001:314 JLINK_WriteReg(MSP, 0x20000800)  returns 0x00 (0000ms, 0751ms total)
T0D40 001:314 JLINK_WriteReg(PSP, 0x20000800)  returns 0x00 (0000ms, 0751ms total)
T0D40 001:315 JLINK_WriteReg(CFBP, 0x00000000)  returns 0x00 (0000ms, 0752ms total)
T0D40 001:315 JLINK_SetBPEx(Addr = 0x20000000, Type = 0xFFFFFFF2)  returns 0x00000009 (0000ms, 0752ms total)
T0D40 001:315 JLINK_Go() (0002ms, 0754ms total)
T0D40 001:317 JLINK_IsHalted()  returns FALSE (0001ms, 0755ms total)
T0D40 001:330 JLINK_IsHalted()  returns FALSE (0000ms, 0754ms total)
T0D40 001:332 JLINK_IsHalted()  returns FALSE (0000ms, 0754ms total)
T0D40 001:334 JLINK_IsHalted()  returns FALSE (0000ms, 0754ms total)
T0D40 001:336 JLINK_IsHalted()  returns FALSE (0000ms, 0754ms total)
T0D40 001:338 JLINK_IsHalted()  returns FALSE (0000ms, 0754ms total)
T0D40 001:339 JLINK_IsHalted()  returns FALSE (0000ms, 0754ms total)
T0D40 001:341 JLINK_IsHalted()  returns FALSE (0000ms, 0754ms total)
T0D40 001:352 JLINK_IsHalted() -- CPU_ReadMem(2 bytes @ 0x20000000)  returns TRUE (0003ms, 0757ms total)
T0D40 001:355 JLINK_ReadReg(R15 (PC))  returns 0x20000000 (0000ms, 0754ms total)
T0D40 001:355 JLINK_ClrBPEx(BPHandle = 0x00000009)  returns 0x00 (0000ms, 0754ms total)
T0D40 001:355 JLINK_ReadReg(R0)  returns 0x00000000 (0001ms, 0755ms total)
T0D40 001:356 JLINK_WriteMem(0x20000164, 0x0400 Bytes, ...) - Data: 42 F0 80 02 02 80 04 E0 02 88 4F F6 7F 73 1A 40 ... -- CPU_WriteMem(1024 bytes @ 0x20000164)  returns 0x400 (0013ms, 0768ms total)
T0D40 001:369 JLINK_WriteReg(R0, 0x08001400)  returns 0x00 (0000ms, 0768ms total)
T0D40 001:369 JLINK_WriteReg(R1, 0x00000400)  returns 0x00 (0000ms, 0768ms total)
T0D40 001:369 JLINK_WriteReg(R2, 0x20000164)  returns 0x00 (0000ms, 0768ms total)
T0D40 001:369 JLINK_WriteReg(R3, 0x00000000)  returns 0x00 (0000ms, 0768ms total)
T0D40 001:369 JLINK_WriteReg(R4, 0x00000000)  returns 0x00 (0000ms, 0768ms total)
T0D40 001:369 JLINK_WriteReg(R5, 0x00000000)  returns 0x00 (0000ms, 0768ms total)
T0D40 001:369 JLINK_WriteReg(R6, 0x00000000)  returns 0x00 (0000ms, 0768ms total)
T0D40 001:369 JLINK_WriteReg(R7, 0x00000000)  returns 0x00 (0000ms, 0768ms total)
T0D40 001:369 JLINK_WriteReg(R8, 0x00000000)  returns 0x00 (0000ms, 0768ms total)
T0D40 001:369 JLINK_WriteReg(R9, 0x20000160)  returns 0x00 (0000ms, 0768ms total)
T0D40 001:369 JLINK_WriteReg(R10, 0x00000000)  returns 0x00 (0000ms, 0768ms total)
T0D40 001:369 JLINK_WriteReg(R11, 0x00000000)  returns 0x00 (0000ms, 0768ms total)
T0D40 001:369 JLINK_WriteReg(R12, 0x00000000)  returns 0x00 (0000ms, 0768ms total)
T0D40 001:369 JLINK_WriteReg(R13 (SP), 0x20000800)  returns 0x00 (0000ms, 0768ms total)
T0D40 001:369 JLINK_WriteReg(R14, 0x20000001)  returns 0x00 (0000ms, 0768ms total)
T0D40 001:369 JLINK_WriteReg(R15 (PC), 0x200000F4)  returns 0x00 (0000ms, 0768ms total)
T0D40 001:369 JLINK_WriteReg(XPSR, 0x01000000)  returns 0x00 (0000ms, 0768ms total)
T0D40 001:369 JLINK_WriteReg(MSP, 0x20000800)  returns 0x00 (0000ms, 0768ms total)
T0D40 001:369 JLINK_WriteReg(PSP, 0x20000800)  returns 0x00 (0000ms, 0768ms total)
T0D40 001:369 JLINK_WriteReg(CFBP, 0x00000000)  returns 0x00 (0000ms, 0768ms total)
T0D40 001:369 JLINK_SetBPEx(Addr = 0x20000000, Type = 0xFFFFFFF2)  returns 0x0000000A (0000ms, 0768ms total)
T0D40 001:369 JLINK_Go() (0003ms, 0771ms total)
T0D40 001:372 JLINK_IsHalted()  returns FALSE (0000ms, 0771ms total)
T0D40 001:377 JLINK_IsHalted()  returns FALSE (0000ms, 0771ms total)
T0D40 001:381 JLINK_IsHalted()  returns FALSE (0000ms, 0771ms total)
T0D40 001:383 JLINK_IsHalted()  returns FALSE (0000ms, 0771ms total)
T0D40 001:385 JLINK_IsHalted()  returns FALSE (0000ms, 0771ms total)
T0D40 001:387 JLINK_IsHalted()  returns FALSE (0000ms, 0771ms total)
T0D40 001:389 JLINK_IsHalted()  returns FALSE (0000ms, 0771ms total)
T0D40 001:391 JLINK_IsHalted()  returns FALSE (0000ms, 0771ms total)
T0D40 001:393 JLINK_IsHalted()  returns FALSE (0000ms, 0771ms total)
T0D40 001:395 JLINK_IsHalted()  returns FALSE (0000ms, 0771ms total)
T0D40 001:397 JLINK_IsHalted()  returns FALSE (0000ms, 0771ms total)
T0D40 001:399 JLINK_IsHalted()  returns FALSE (0000ms, 0771ms total)
T0D40 001:401 JLINK_IsHalted()  returns FALSE (0000ms, 0771ms total)
T0D40 001:403 JLINK_IsHalted() -- CPU_ReadMem(2 bytes @ 0x20000000)  returns TRUE (0003ms, 0774ms total)
T0D40 001:407 JLINK_ReadReg(R15 (PC))  returns 0x20000000 (0000ms, 0771ms total)
T0D40 001:407 JLINK_ClrBPEx(BPHandle = 0x0000000A)  returns 0x00 (0000ms, 0771ms total)
T0D40 001:407 JLINK_ReadReg(R0)  returns 0x00000000 (0000ms, 0771ms total)
T0D40 001:408 JLINK_WriteMem(0x20000164, 0x0400 Bytes, ...) - Data: 05 F4 80 34 02 25 05 EB 92 42 1C B9 54 4D 55 43 ... -- CPU_WriteMem(1024 bytes @ 0x20000164)  returns 0x400 (0013ms, 0784ms total)
T0D40 001:421 JLINK_WriteReg(R0, 0x08001800)  returns 0x00 (0000ms, 0784ms total)
T0D40 001:421 JLINK_WriteReg(R1, 0x00000400)  returns 0x00 (0000ms, 0784ms total)
T0D40 001:421 JLINK_WriteReg(R2, 0x20000164)  returns 0x00 (0000ms, 0784ms total)
T0D40 001:421 JLINK_WriteReg(R3, 0x00000000)  returns 0x00 (0000ms, 0784ms total)
T0D40 001:421 JLINK_WriteReg(R4, 0x00000000)  returns 0x00 (0000ms, 0784ms total)
T0D40 001:421 JLINK_WriteReg(R5, 0x00000000)  returns 0x00 (0000ms, 0784ms total)
T0D40 001:421 JLINK_WriteReg(R6, 0x00000000)  returns 0x00 (0000ms, 0784ms total)
T0D40 001:421 JLINK_WriteReg(R7, 0x00000000)  returns 0x00 (0000ms, 0784ms total)
T0D40 001:421 JLINK_WriteReg(R8, 0x00000000)  returns 0x00 (0000ms, 0784ms total)
T0D40 001:421 JLINK_WriteReg(R9, 0x20000160)  returns 0x00 (0000ms, 0784ms total)
T0D40 001:421 JLINK_WriteReg(R10, 0x00000000)  returns 0x00 (0000ms, 0784ms total)
T0D40 001:421 JLINK_WriteReg(R11, 0x00000000)  returns 0x00 (0000ms, 0784ms total)
T0D40 001:421 JLINK_WriteReg(R12, 0x00000000)  returns 0x00 (0000ms, 0784ms total)
T0D40 001:421 JLINK_WriteReg(R13 (SP), 0x20000800)  returns 0x00 (0000ms, 0784ms total)
T0D40 001:421 JLINK_WriteReg(R14, 0x20000001)  returns 0x00 (0000ms, 0784ms total)
T0D40 001:421 JLINK_WriteReg(R15 (PC), 0x200000F4)  returns 0x00 (0000ms, 0784ms total)
T0D40 001:421 JLINK_WriteReg(XPSR, 0x01000000)  returns 0x00 (0000ms, 0784ms total)
T0D40 001:421 JLINK_WriteReg(MSP, 0x20000800)  returns 0x00 (0000ms, 0784ms total)
T0D40 001:421 JLINK_WriteReg(PSP, 0x20000800)  returns 0x00 (0000ms, 0784ms total)
T0D40 001:421 JLINK_WriteReg(CFBP, 0x00000000)  returns 0x00 (0000ms, 0784ms total)
T0D40 001:421 JLINK_SetBPEx(Addr = 0x20000000, Type = 0xFFFFFFF2)  returns 0x0000000B (0000ms, 0784ms total)
T0D40 001:421 JLINK_Go() (0002ms, 0786ms total)
T0D40 001:423 JLINK_IsHalted()  returns FALSE (0001ms, 0787ms total)
T0D40 001:433 JLINK_IsHalted()  returns FALSE (0000ms, 0786ms total)
T0D40 001:435 JLINK_IsHalted()  returns FALSE (0000ms, 0786ms total)
T0D40 001:437 JLINK_IsHalted()  returns FALSE (0000ms, 0786ms total)
T0D40 001:439 JLINK_IsHalted()  returns FALSE (0000ms, 0786ms total)
T0D40 001:441 JLINK_IsHalted()  returns FALSE (0001ms, 0787ms total)
T0D40 001:444 JLINK_IsHalted()  returns FALSE (0000ms, 0786ms total)
T0D40 001:446 JLINK_IsHalted()  returns FALSE (0000ms, 0786ms total)
T0D40 001:448 JLINK_IsHalted()  returns FALSE (0000ms, 0786ms total)
T0D40 001:450 JLINK_IsHalted()  returns FALSE (0000ms, 0786ms total)
T0D40 001:452 JLINK_IsHalted()  returns FALSE (0000ms, 0786ms total)
T0D40 001:457 JLINK_IsHalted() -- CPU_ReadMem(2 bytes @ 0x20000000)  returns TRUE (0003ms, 0789ms total)
T0D40 001:460 JLINK_ReadReg(R15 (PC))  returns 0x20000000 (0000ms, 0786ms total)
T0D40 001:460 JLINK_ClrBPEx(BPHandle = 0x0000000B)  returns 0x00 (0000ms, 0786ms total)
T0D40 001:460 JLINK_ReadReg(R0)  returns 0x00000000 (0000ms, 0786ms total)
T0D40 001:461 JLINK_WriteMem(0x20000164, 0x0400 Bytes, ...) - Data: FF F7 77 FE 00 21 A0 15 FF F7 73 FE 25 E0 B6 48 ... -- CPU_WriteMem(1024 bytes @ 0x20000164)  returns 0x400 (0012ms, 0798ms total)
T0D40 001:473 JLINK_WriteReg(R0, 0x08001C00)  returns 0x00 (0000ms, 0798ms total)
T0D40 001:473 JLINK_WriteReg(R1, 0x00000400)  returns 0x00 (0000ms, 0798ms total)
T0D40 001:473 JLINK_WriteReg(R2, 0x20000164)  returns 0x00 (0000ms, 0798ms total)
T0D40 001:473 JLINK_WriteReg(R3, 0x00000000)  returns 0x00 (0000ms, 0798ms total)
T0D40 001:473 JLINK_WriteReg(R4, 0x00000000)  returns 0x00 (0000ms, 0798ms total)
T0D40 001:473 JLINK_WriteReg(R5, 0x00000000)  returns 0x00 (0000ms, 0798ms total)
T0D40 001:473 JLINK_WriteReg(R6, 0x00000000)  returns 0x00 (0000ms, 0798ms total)
T0D40 001:473 JLINK_WriteReg(R7, 0x00000000)  returns 0x00 (0000ms, 0798ms total)
T0D40 001:473 JLINK_WriteReg(R8, 0x00000000)  returns 0x00 (0000ms, 0798ms total)
T0D40 001:473 JLINK_WriteReg(R9, 0x20000160)  returns 0x00 (0000ms, 0798ms total)
T0D40 001:473 JLINK_WriteReg(R10, 0x00000000)  returns 0x00 (0000ms, 0798ms total)
T0D40 001:473 JLINK_WriteReg(R11, 0x00000000)  returns 0x00 (0000ms, 0798ms total)
T0D40 001:473 JLINK_WriteReg(R12, 0x00000000)  returns 0x00 (0000ms, 0798ms total)
T0D40 001:473 JLINK_WriteReg(R13 (SP), 0x20000800)  returns 0x00 (0000ms, 0798ms total)
T0D40 001:473 JLINK_WriteReg(R14, 0x20000001)  returns 0x00 (0000ms, 0798ms total)
T0D40 001:473 JLINK_WriteReg(R15 (PC), 0x200000F4)  returns 0x00 (0000ms, 0798ms total)
T0D40 001:473 JLINK_WriteReg(XPSR, 0x01000000)  returns 0x00 (0000ms, 0798ms total)
T0D40 001:473 JLINK_WriteReg(MSP, 0x20000800)  returns 0x00 (0001ms, 0799ms total)
T0D40 001:474 JLINK_WriteReg(PSP, 0x20000800)  returns 0x00 (0000ms, 0799ms total)
T0D40 001:474 JLINK_WriteReg(CFBP, 0x00000000)  returns 0x00 (0000ms, 0799ms total)
T0D40 001:474 JLINK_SetBPEx(Addr = 0x20000000, Type = 0xFFFFFFF2)  returns 0x0000000C (0000ms, 0799ms total)
T0D40 001:474 JLINK_Go() (0001ms, 0800ms total)
T0D40 001:475 JLINK_IsHalted()  returns FALSE (0001ms, 0801ms total)
T0D40 001:479 JLINK_IsHalted()  returns FALSE (0000ms, 0800ms total)
T0D40 001:481 JLINK_IsHalted()  returns FALSE (0000ms, 0800ms total)
T0D40 001:483 JLINK_IsHalted()  returns FALSE (0000ms, 0800ms total)
T0D40 001:488 JLINK_IsHalted()  returns FALSE (0000ms, 0800ms total)
T0D40 001:490 JLINK_IsHalted()  returns FALSE (0000ms, 0800ms total)
T0D40 001:492 JLINK_IsHalted()  returns FALSE (0000ms, 0800ms total)
T0D40 001:494 JLINK_IsHalted()  returns FALSE (0000ms, 0800ms total)
T0D40 001:496 JLINK_IsHalted()  returns FALSE (0000ms, 0800ms total)
T0D40 001:498 JLINK_IsHalted()  returns FALSE (0000ms, 0800ms total)
T0D40 001:500 JLINK_IsHalted()  returns FALSE (0000ms, 0800ms total)
T0D40 001:503 JLINK_IsHalted()  returns FALSE (0000ms, 0800ms total)
T0D40 001:505 JLINK_IsHalted()  returns FALSE (0000ms, 0800ms total)
T0D40 001:507 JLINK_IsHalted() -- CPU_ReadMem(2 bytes @ 0x20000000)  returns TRUE (0004ms, 0804ms total)
T0D40 001:511 JLINK_ReadReg(R15 (PC))  returns 0x20000000 (0000ms, 0800ms total)
T0D40 001:511 JLINK_ClrBPEx(BPHandle = 0x0000000C)  returns 0x00 (0000ms, 0800ms total)
T0D40 001:511 JLINK_ReadReg(R0)  returns 0x00000000 (0000ms, 0800ms total)
T0D40 001:514 JLINK_WriteMem(0x20000164, 0x0400 Bytes, ...) - Data: 07 EA 0C 07 07 84 82 8B 01 8C 4F F6 FF 77 07 EA ... -- CPU_WriteMem(1024 bytes @ 0x20000164)  returns 0x400 (0013ms, 0813ms total)
T0D40 001:527 JLINK_WriteReg(R0, 0x08002000)  returns 0x00 (0000ms, 0813ms total)
T0D40 001:527 JLINK_WriteReg(R1, 0x00000400)  returns 0x00 (0000ms, 0813ms total)
T0D40 001:527 JLINK_WriteReg(R2, 0x20000164)  returns 0x00 (0000ms, 0813ms total)
T0D40 001:527 JLINK_WriteReg(R3, 0x00000000)  returns 0x00 (0000ms, 0813ms total)
T0D40 001:527 JLINK_WriteReg(R4, 0x00000000)  returns 0x00 (0000ms, 0813ms total)
T0D40 001:527 JLINK_WriteReg(R5, 0x00000000)  returns 0x00 (0000ms, 0813ms total)
T0D40 001:527 JLINK_WriteReg(R6, 0x00000000)  returns 0x00 (0000ms, 0813ms total)
T0D40 001:527 JLINK_WriteReg(R7, 0x00000000)  returns 0x00 (0000ms, 0813ms total)
T0D40 001:527 JLINK_WriteReg(R8, 0x00000000)  returns 0x00 (0000ms, 0813ms total)
T0D40 001:527 JLINK_WriteReg(R9, 0x20000160)  returns 0x00 (0000ms, 0813ms total)
T0D40 001:527 JLINK_WriteReg(R10, 0x00000000)  returns 0x00 (0000ms, 0813ms total)
T0D40 001:527 JLINK_WriteReg(R11, 0x00000000)  returns 0x00 (0000ms, 0813ms total)
T0D40 001:527 JLINK_WriteReg(R12, 0x00000000)  returns 0x00 (0000ms, 0813ms total)
T0D40 001:527 JLINK_WriteReg(R13 (SP), 0x20000800)  returns 0x00 (0000ms, 0813ms total)
T0D40 001:527 JLINK_WriteReg(R14, 0x20000001)  returns 0x00 (0000ms, 0813ms total)
T0D40 001:527 JLINK_WriteReg(R15 (PC), 0x200000F4)  returns 0x00 (0000ms, 0813ms total)
T0D40 001:527 JLINK_WriteReg(XPSR, 0x01000000)  returns 0x00 (0000ms, 0813ms total)
T0D40 001:527 JLINK_WriteReg(MSP, 0x20000800)  returns 0x00 (0000ms, 0813ms total)
T0D40 001:527 JLINK_WriteReg(PSP, 0x20000800)  returns 0x00 (0000ms, 0813ms total)
T0D40 001:527 JLINK_WriteReg(CFBP, 0x00000000)  returns 0x00 (0000ms, 0813ms total)
T0D40 001:527 JLINK_SetBPEx(Addr = 0x20000000, Type = 0xFFFFFFF2)  returns 0x0000000D (0001ms, 0814ms total)
T0D40 001:528 JLINK_Go() (0001ms, 0815ms total)
T0D40 001:529 JLINK_IsHalted()  returns FALSE (0001ms, 0816ms total)
T0D40 001:540 JLINK_IsHalted()  returns FALSE (0000ms, 0815ms total)
T0D40 001:542 JLINK_IsHalted()  returns FALSE (0000ms, 0815ms total)
T0D40 001:544 JLINK_IsHalted()  returns FALSE (0000ms, 0815ms total)
T0D40 001:546 JLINK_IsHalted()  returns FALSE (0001ms, 0816ms total)
T0D40 001:548 JLINK_IsHalted()  returns FALSE (0000ms, 0815ms total)
T0D40 001:550 JLINK_IsHalted()  returns FALSE (0000ms, 0815ms total)
T0D40 001:552 JLINK_IsHalted()  returns FALSE (0000ms, 0815ms total)
T0D40 001:554 JLINK_IsHalted()  returns FALSE (0000ms, 0815ms total)
T0D40 001:556 JLINK_IsHalted()  returns FALSE (0000ms, 0815ms total)
T0D40 001:558 JLINK_IsHalted()  returns FALSE (0000ms, 0815ms total)
T0D40 001:560 JLINK_IsHalted() -- CPU_ReadMem(2 bytes @ 0x20000000)  returns TRUE (0004ms, 0819ms total)
T0D40 001:564 JLINK_ReadReg(R15 (PC))  returns 0x20000000 (0000ms, 0815ms total)
T0D40 001:564 JLINK_ClrBPEx(BPHandle = 0x0000000D)  returns 0x00 (0000ms, 0815ms total)
T0D40 001:564 JLINK_ReadReg(R0)  returns 0x00000000 (0000ms, 0815ms total)
T0D40 001:567 JLINK_WriteMem(0x20000164, 0x0400 Bytes, ...) - Data: 03 25 15 43 25 43 29 43 01 81 30 BD 2D E9 F0 41 ... -- CPU_WriteMem(1024 bytes @ 0x20000164)  returns 0x400 (0012ms, 0827ms total)
T0D40 001:579 JLINK_WriteReg(R0, 0x08002400)  returns 0x00 (0001ms, 0828ms total)
T0D40 001:580 JLINK_WriteReg(R1, 0x00000400)  returns 0x00 (0000ms, 0828ms total)
T0D40 001:580 JLINK_WriteReg(R2, 0x20000164)  returns 0x00 (0000ms, 0828ms total)
T0D40 001:580 JLINK_WriteReg(R3, 0x00000000)  returns 0x00 (0000ms, 0828ms total)
T0D40 001:580 JLINK_WriteReg(R4, 0x00000000)  returns 0x00 (0000ms, 0828ms total)
T0D40 001:580 JLINK_WriteReg(R5, 0x00000000)  returns 0x00 (0000ms, 0828ms total)
T0D40 001:580 JLINK_WriteReg(R6, 0x00000000)  returns 0x00 (0000ms, 0828ms total)
T0D40 001:580 JLINK_WriteReg(R7, 0x00000000)  returns 0x00 (0000ms, 0828ms total)
T0D40 001:580 JLINK_WriteReg(R8, 0x00000000)  returns 0x00 (0000ms, 0828ms total)
T0D40 001:580 JLINK_WriteReg(R9, 0x20000160)  returns 0x00 (0000ms, 0828ms total)
T0D40 001:580 JLINK_WriteReg(R10, 0x00000000)  returns 0x00 (0000ms, 0828ms total)
T0D40 001:580 JLINK_WriteReg(R11, 0x00000000)  returns 0x00 (0000ms, 0828ms total)
T0D40 001:580 JLINK_WriteReg(R12, 0x00000000)  returns 0x00 (0000ms, 0828ms total)
T0D40 001:580 JLINK_WriteReg(R13 (SP), 0x20000800)  returns 0x00 (0000ms, 0828ms total)
T0D40 001:580 JLINK_WriteReg(R14, 0x20000001)  returns 0x00 (0000ms, 0828ms total)
T0D40 001:580 JLINK_WriteReg(R15 (PC), 0x200000F4)  returns 0x00 (0000ms, 0828ms total)
T0D40 001:580 JLINK_WriteReg(XPSR, 0x01000000)  returns 0x00 (0000ms, 0828ms total)
T0D40 001:580 JLINK_WriteReg(MSP, 0x20000800)  returns 0x00 (0000ms, 0828ms total)
T0D40 001:580 JLINK_WriteReg(PSP, 0x20000800)  returns 0x00 (0000ms, 0828ms total)
T0D40 001:580 JLINK_WriteReg(CFBP, 0x00000000)  returns 0x00 (0000ms, 0828ms total)
T0D40 001:580 JLINK_SetBPEx(Addr = 0x20000000, Type = 0xFFFFFFF2)  returns 0x0000000E (0000ms, 0828ms total)
T0D40 001:580 JLINK_Go() (0002ms, 0830ms total)
T0D40 001:582 JLINK_IsHalted()  returns FALSE (0001ms, 0831ms total)
T0D40 001:592 JLINK_IsHalted()  returns FALSE (0000ms, 0830ms total)
T0D40 001:597 JLINK_IsHalted()  returns FALSE (0000ms, 0830ms total)
T0D40 001:600 JLINK_IsHalted()  returns FALSE (0000ms, 0830ms total)
T0D40 001:602 JLINK_IsHalted()  returns FALSE (0000ms, 0830ms total)
T0D40 001:604 JLINK_IsHalted()  returns FALSE (0000ms, 0830ms total)
T0D40 001:606 JLINK_IsHalted()  returns FALSE (0000ms, 0830ms total)
T0D40 001:608 JLINK_IsHalted()  returns FALSE (0000ms, 0830ms total)
T0D40 001:610 JLINK_IsHalted()  returns FALSE (0000ms, 0830ms total)
T0D40 001:612 JLINK_IsHalted()  returns FALSE (0000ms, 0830ms total)
T0D40 001:614 JLINK_IsHalted() -- CPU_ReadMem(2 bytes @ 0x20000000)  returns TRUE (0003ms, 0833ms total)
T0D40 001:617 JLINK_ReadReg(R15 (PC))  returns 0x20000000 (0000ms, 0830ms total)
T0D40 001:617 JLINK_ClrBPEx(BPHandle = 0x0000000E)  returns 0x00 (0000ms, 0830ms total)
T0D40 001:617 JLINK_ReadReg(R0)  returns 0x00000000 (0000ms, 0830ms total)
T0D40 001:618 JLINK_WriteMem(0x20000164, 0x0400 Bytes, ...) - Data: 0A 43 02 80 70 47 82 88 4F F6 8F 73 1A 40 82 80 ... -- CPU_WriteMem(1024 bytes @ 0x20000164)  returns 0x400 (0012ms, 0842ms total)
T0D40 001:630 JLINK_WriteReg(R0, 0x08002800)  returns 0x00 (0000ms, 0842ms total)
T0D40 001:630 JLINK_WriteReg(R1, 0x00000400)  returns 0x00 (0000ms, 0842ms total)
T0D40 001:630 JLINK_WriteReg(R2, 0x20000164)  returns 0x00 (0000ms, 0842ms total)
T0D40 001:630 JLINK_WriteReg(R3, 0x00000000)  returns 0x00 (0000ms, 0842ms total)
T0D40 001:630 JLINK_WriteReg(R4, 0x00000000)  returns 0x00 (0000ms, 0842ms total)
T0D40 001:630 JLINK_WriteReg(R5, 0x00000000)  returns 0x00 (0000ms, 0842ms total)
T0D40 001:630 JLINK_WriteReg(R6, 0x00000000)  returns 0x00 (0000ms, 0842ms total)
